
T12C5C 000:046 SEGGER J-Link V4.62 Log File (0001ms, 0047ms total)
T12C5C 000:046 DLL Compiled: Jan 25 2013 15:19:47 (0001ms, 0047ms total)
T12C5C 000:046 Logging started @ 2018-03-03 17:06 (0001ms, 0047ms total)
T12C5C 000:047 JLINK_SetWarnOutHandler(...) (0000ms, 0047ms total)
T12C5C 000:047 JLINK_OpenEx(...)
Firmware: J-Link ARM-OB STM32 compiled Aug 22 2012 19:52:04
Hardware: V7.00
S/N: 20170331
Feature(s): RDI,FlashDL,FlashBP,JFlash,GDBFull  returns O.K. (0011ms, 0058ms total)
T12C5C 000:058 JLINK_GetEmuCaps()  returns 0x88EA5833 (0000ms, 0058ms total)
T12C5C 000:058 JLINK_TIF_GetAvailable(...) (0000ms, 0058ms total)
T12C5C 000:058 JLINK_SetErrorOutHandler(...) (0000ms, 0058ms total)
T12C5C 000:058 JLINK_ExecCommand("ProjectFile = "C:\Users\Administrator\Desktop\share\KEA128-Project\Projecct\MDK\JLinkSettings.ini"", ...)
                JLINK_AddMirrorAreaEx(Addr = 0x00000000, Size = 0x00000000) (0000ms, 0000ms total)
              Device "UNSPECIFIED" selected (0 KB flash, 0 KB RAM).  returns 0x00 (0012ms, 0070ms total)
T12C5C 000:072 JLINK_ExecCommand("Device = SKEAZ128xxx4", ...)
                JLINK_AddMirrorAreaEx(Addr = 0x00000000, Size = 0x00000000) (0000ms, 0000ms total)
              Device "UNSPECIFIED" selected (0 KB flash, 0 KB RAM).  returns 0x00 (0000ms, 0070ms total)
T12C5C 000:072 JLINK_ExecCommand("DisableConnectionTimeout", ...)  returns 0x00 (0000ms, 0071ms total)
T12C5C 000:073 JLINK_GetHardwareVersion()  returns 0x11170 (0000ms, 0071ms total)
T12C5C 000:073 JLINK_GetDLLVersion()  returns 46200 (0000ms, 0071ms total)
T12C5C 000:073 JLINK_GetFirmwareString(...) (0000ms, 0071ms total)
T12C5C 000:075 JLINK_GetDLLVersion()  returns 46200 (0000ms, 0071ms total)
T12C5C 000:075 JLINK_GetCompileDateTime() (0000ms, 0071ms total)
T12C5C 000:076 JLINK_GetFirmwareString(...) (0000ms, 0071ms total)
T12C5C 000:077 JLINK_GetHardwareVersion()  returns 0x11170 (0000ms, 0071ms total)
T12C5C 000:080 JLINK_TIF_Select(JLINKARM_TIF_SWD)  returns 0x00 (0000ms, 0071ms total)
T12C5C 000:080 JLINK_SetSpeed(20000) (0000ms, 0071ms total)
T12C5C 000:080 JLINK_GetId() >0x108 TIF>Found SWD-DP with ID 0x0BC11477 >0x0D TIF> >0x21 TIF> >0x0D TIF> >0x28 TIF> >0x0D TIF> >0x28 TIF> >0x0D TIF> >0x21 TIF> >0x0D TIF> >0x21 TIF> >0x0D TIF> >0x28 TIF> >0x0D TIF> >0x21 TIF> >0x0D TIF> >0x21 TIF> >0x0D TIF> >0x21 TIF> >0x0D TIF> >0x21 TIF> >0x0D TIF> >0x21 TIF> >0x0D TIF> >0x28 TIF> >0x0D TIF> >0x28 TIF> >0x0D TIF> >0x21 TIF> >0x0D TIF> >0x21 TIF> >0x0D TIF> >0x28 TIF> >0x0D TIF> >0x21 TIF> >0x0D TIF> >0x21 TIF> >0x0D TIF> >0x28 TIF> >0x0D TIF>
 >0x28 TIF> >0x0D TIF> >0x28 TIF> >0x0D TIF> >0x21 TIF> >0x0D TIF> >0x21 TIF> >0x0D TIF> >0x28 TIF> >0x0D TIF> >0x28 TIF> >0x0D TIF> >0x28 TIF> >0x0D TIF> >0x28 TIF> >0x0D TIF> >0x28 TIF> >0x0D TIF> >0x21 TIF> >0x0D TIF> >0x21 TIF> >0x0D TIF> >0x21 TIF> >0x0D TIF> >0x28 TIF> >0x0D TIF> >0x21 TIF> >0x0D TIF> >0x21 TIF> >0x0D TIF> >0x28 TIF> >0x0D TIF> >0x21 TIF> >0x0D TIF> >0x21 TIF>FPUnit: 2 code (BP) slots and 0 literal slots >0x0D TIF> >0x28 TIF> >0x0D TIF> >0x21 TIF> >0x0D TIF> >0x21 TIF> >0x0D TIF>
 >0x28 TIF> >0x0D TIF> >0x28 TIF> >0x0D TIF> >0x28 TIF> >0x0D TIF> >0x21 TIF> >0x0D TIF> >0x21 TIF> >0x0D TIF> >0x28 TIF> >0x0D TIF> >0x21 TIF> >0x0D TIF> >0x21 TIF> >0x0D TIF> >0x28 TIF> >0x0D TIF> >0x21 TIF> >0x0D TIF> >0x21 TIF>Found Cortex-M0 r0p0, Little endian. >0x0D TIF> >0x21 TIF>  returns 0x0BC11477 (0024ms, 0095ms total)
T12C5C 000:104 JLINK_GetDLLVersion()  returns 46200 (0000ms, 0095ms total)
T12C5C 000:104 JLINK_CORE_GetFound()  returns 0x60000FF (0000ms, 0095ms total)
T12C5C 000:105 JLINK_GetDebugInfo(0x100) -- Value=0xF0002003  returns 0x00 (0000ms, 0095ms total)
T12C5C 000:105 JLINK_GetDebugInfo(0x101)  returns 0xFFFFFFFF (0000ms, 0095ms total)
T12C5C 000:105 JLINK_ReadMemEx(0xE0041FF0, 0x0010 Bytes, ..., AccessWidth = 33554436) -- CPU is running -- CPU_ReadMem(16 bytes @ 0xE0041FF0) -- Data:  00 00 00 00 00 00 00 00 00 00 00 00 00 00 00 00  returns 0x10 (0001ms, 0096ms total)
T12C5C 000:106 JLINK_GetDebugInfo(0x102)  returns 0xFFFFFFFF (0000ms, 0096ms total)
T12C5C 000:106 JLINK_GetDebugInfo(0x103)  returns 0xFFFFFFFF (0000ms, 0096ms total)
T12C5C 000:106 JLINK_ReadMemEx(0xE0040FF0, 0x0010 Bytes, ..., AccessWidth = 33554436) -- CPU is running -- CPU_ReadMem(16 bytes @ 0xE0040FF0) -- Data:  00 00 00 00 00 00 00 00 00 00 00 00 00 00 00 00  returns 0x10 (0001ms, 0097ms total)
T12C5C 000:107 JLINK_GetDebugInfo(0x104)  returns 0xFFFFFFFF (0000ms, 0097ms total)
T12C5C 000:107 JLINK_GetDebugInfo(0x105)  returns 0xFFFFFFFF (0000ms, 0097ms total)
T12C5C 000:107 JLINK_GetDebugInfo(0x106)  returns 0xFFFFFFFF (0000ms, 0097ms total)
T12C5C 000:107 JLINK_GetDebugInfo(0x107)  returns 0xFFFFFFFF (0000ms, 0097ms total)
T12C5C 000:107 JLINK_GetDebugInfo(0x10C)  returns 0xFFFFFFFF (0000ms, 0097ms total)
T12C5C 000:107 JLINK_ReadMemU32(0xE000ED00, 0x0001 Items, ...) -- CPU is running -- CPU_ReadMem(4 bytes @ 0xE000ED00) -- Data:  00 C6 0C 41  returns 0x01 (0001ms, 0098ms total)
T12C5C 000:108 JLINK_GetDebugInfo(0x10F)  returns 0xFFFFFFFF (0000ms, 0098ms total)
T12C5C 000:108 JLINK_SetResetType(JLINKARM_RESET_TYPE_NORMAL)  returns JLINKARM_RESET_TYPE_NORMAL (0000ms, 0098ms total)
T12C5C 000:108 JLINK_Reset() -- CPU is running -- CPU_WriteMem(4 bytes @ 0xE000EDF0) -- CPU is running -- CPU_WriteMem(4 bytes @ 0xE000EDFC) >0x35 TIF> -- CPU is running -- CPU_WriteMem(4 bytes @ 0xE000ED0C) -- CPU is running -- CPU_ReadMem(4 bytes @ 0xE000EDF0) -- CPU is running -- CPU_ReadMem(4 bytes @ 0xE000EDF0) -- CPU is running -- CPU_WriteMem(4 bytes @ 0xE000EDF0) -- CPU is running -- CPU_WriteMem(4 bytes @ 0xE000EDFC) -- CPU is running -- CPU_ReadMem(4 bytes @ 0xE000EDF0)
 -- CPU_WriteMem(4 bytes @ 0xE0002000) (0018ms, 0116ms total)
T12C5C 000:127 JLINK_Halt()  returns 0x00 (0000ms, 0117ms total)
T12C5C 000:127 JLINK_ReadMemU32(0xE000EDF0, 0x0001 Items, ...) -- CPU_ReadMem(4 bytes @ 0xE000EDF0) -- Data:  03 00 03 01  returns 0x01 (0000ms, 0117ms total)
T12C5C 000:127 JLINK_WriteU32(0xE000EDF0, 0xA05F0003) -- CPU_WriteMem(4 bytes @ 0xE000EDF0)  returns 0x00 (0001ms, 0118ms total)
T12C5C 000:128 JLINK_WriteU32(0xE000EDFC, 0x01000000) -- CPU_WriteMem(4 bytes @ 0xE000EDFC)  returns 0x00 (0001ms, 0119ms total)
T12C5C 000:133 JLINK_GetHWStatus(...)  returns 0x00 (0000ms, 0119ms total)
T12C5C 000:135 JLINK_GetNumBPUnits(Type = 0xFFFFFF00)  returns 0x02 (0000ms, 0119ms total)
T12C5C 000:135 JLINK_GetNumBPUnits(Type = 0xF0)  returns 0x2000 (0000ms, 0119ms total)
T12C5C 000:135 JLINK_GetNumWPUnits()  returns 0x02 (0000ms, 0119ms total)
T12C5C 000:136 JLINK_GetSpeed()  returns 0xFA0 (0000ms, 0119ms total)
T12C5C 000:137 JLINK_ReadMemU32(0xE000E004, 0x0001 Items, ...) -- CPU_ReadMem(4 bytes @ 0xE000E004) -- Data:  00 00 00 00  returns 0x01 (0001ms, 0120ms total)
T12C5C 000:138 JLINK_Halt()  returns 0x00 (0000ms, 0120ms total)
T12C5C 000:138 JLINK_IsHalted()  returns TRUE (0000ms, 0120ms total)
T12C5C 000:140 JLINK_WriteMem(0x1FFFF000, 0x01AC Bytes, ...) -- Data:  00 BE 0A E0 0D 78 2D 06 68 40 08 24 40 00 00 D3 ... -- CPU_WriteMem(428 bytes @ 0x1FFFF000)  returns 0x1AC (0006ms, 0126ms total)
T12C5C 000:146 JLINK_WriteReg(R0, 0x00000000)  returns 0x00 (0000ms, 0126ms total)
T12C5C 000:146 JLINK_WriteReg(R1, 0x00F42400)  returns 0x00 (0000ms, 0126ms total)
T12C5C 000:146 JLINK_WriteReg(R2, 0x00000001)  returns 0x00 (0000ms, 0126ms total)
T12C5C 000:146 JLINK_WriteReg(R3, 0x00000000)  returns 0x00 (0000ms, 0126ms total)
T12C5C 000:146 JLINK_WriteReg(R4, 0x00000000)  returns 0x00 (0000ms, 0126ms total)
T12C5C 000:146 JLINK_WriteReg(R5, 0x00000000)  returns 0x00 (0000ms, 0126ms total)
T12C5C 000:146 JLINK_WriteReg(R6, 0x00000000)  returns 0x00 (0000ms, 0126ms total)
T12C5C 000:146 JLINK_WriteReg(R7, 0x00000000)  returns 0x00 (0000ms, 0126ms total)
T12C5C 000:146 JLINK_WriteReg(R8, 0x00000000)  returns 0x00 (0001ms, 0127ms total)
T12C5C 000:147 JLINK_WriteReg(R9, 0x1FFFF1A8)  returns 0x00 (0000ms, 0127ms total)
T12C5C 000:147 JLINK_WriteReg(R10, 0x00000000)  returns 0x00 (0000ms, 0127ms total)
T12C5C 000:147 JLINK_WriteReg(R11, 0x00000000)  returns 0x00 (0000ms, 0127ms total)
T12C5C 000:147 JLINK_WriteReg(R12, 0x00000000)  returns 0x00 (0000ms, 0127ms total)
T12C5C 000:147 JLINK_WriteReg(R13, 0x20000000)  returns 0x00 (0000ms, 0127ms total)
T12C5C 000:147 JLINK_WriteReg(R14, 0x1FFFF001)  returns 0x00 (0000ms, 0127ms total)
T12C5C 000:147 JLINK_WriteReg(R15, 0x1FFFF038)  returns 0x00 (0000ms, 0127ms total)
T12C5C 000:147 JLINK_WriteReg(XPSR, 0x01000000)  returns 0x00 (0000ms, 0127ms total)
T12C5C 000:147 JLINK_WriteReg(MSP, 0x20000000)  returns 0x00 (0000ms, 0127ms total)
T12C5C 000:147 JLINK_WriteReg(PSP, 0x20000000)  returns 0x00 (0000ms, 0127ms total)
T12C5C 000:147 JLINK_WriteReg(CFBP, 0x00000000)  returns 0x00 (0000ms, 0127ms total)
T12C5C 000:147 JLINK_SetBPEx(Addr = 0x1FFFF000, Type = 0xFFFFFFF2)  returns 0x00000001 (0000ms, 0127ms total)
T12C5C 000:147 JLINK_Go() -- CPU_WriteMem(4 bytes @ 0xE0002008) -- CPU_WriteMem(4 bytes @ 0xE000200C) (0004ms, 0131ms total)
T12C5C 000:151 JLINK_IsHalted()  returns TRUE (0004ms, 0135ms total)
T12C5C 000:155 JLINK_ReadReg(R15)  returns 0x1FFFF000 (0000ms, 0131ms total)
T12C5C 000:155 JLINK_ClrBPEx(BPHandle = 0x00000001)  returns 0x00 (0000ms, 0131ms total)
T12C5C 000:155 JLINK_ReadReg(R0)  returns 0x00000000 (0000ms, 0131ms total)
T12C5C 000:155 JLINK_WriteReg(R0, 0x00000000)  returns 0x00 (0000ms, 0131ms total)
T12C5C 000:155 JLINK_WriteReg(R1, 0x00000200)  returns 0x00 (0000ms, 0131ms total)
T12C5C 000:155 JLINK_WriteReg(R2, 0x000000FF)  returns 0x00 (0000ms, 0131ms total)
T12C5C 000:155 JLINK_WriteReg(R3, 0x00000000)  returns 0x00 (0000ms, 0131ms total)
T12C5C 000:155 JLINK_WriteReg(R4, 0x00000000)  returns 0x00 (0000ms, 0131ms total)
T12C5C 000:155 JLINK_WriteReg(R5, 0x00000000)  returns 0x00 (0000ms, 0131ms total)
T12C5C 000:155 JLINK_WriteReg(R6, 0x00000000)  returns 0x00 (0000ms, 0131ms total)
T12C5C 000:155 JLINK_WriteReg(R7, 0x00000000)  returns 0x00 (0000ms, 0131ms total)
T12C5C 000:155 JLINK_WriteReg(R8, 0x00000000)  returns 0x00 (0000ms, 0131ms total)
T12C5C 000:156 JLINK_WriteReg(R9, 0x1FFFF1A8)  returns 0x00 (0000ms, 0132ms total)
T12C5C 000:156 JLINK_WriteReg(R10, 0x00000000)  returns 0x00 (0000ms, 0132ms total)
T12C5C 000:156 JLINK_WriteReg(R11, 0x00000000)  returns 0x00 (0000ms, 0132ms total)
T12C5C 000:156 JLINK_WriteReg(R12, 0x00000000)  returns 0x00 (0000ms, 0132ms total)
T12C5C 000:156 JLINK_WriteReg(R13, 0x20000000)  returns 0x00 (0000ms, 0132ms total)
T12C5C 000:156 JLINK_WriteReg(R14, 0x1FFFF001)  returns 0x00 (0000ms, 0132ms total)
T12C5C 000:156 JLINK_WriteReg(R15, 0x1FFFF020)  returns 0x00 (0000ms, 0132ms total)
T12C5C 000:156 JLINK_WriteReg(XPSR, 0x01000000)  returns 0x00 (0000ms, 0132ms total)
T12C5C 000:156 JLINK_WriteReg(MSP, 0x20000000)  returns 0x00 (0000ms, 0132ms total)
T12C5C 000:156 JLINK_WriteReg(PSP, 0x20000000)  returns 0x00 (0000ms, 0132ms total)
T12C5C 000:156 JLINK_WriteReg(CFBP, 0x00000000)  returns 0x00 (0000ms, 0132ms total)
T12C5C 000:156 JLINK_SetBPEx(Addr = 0x1FFFF000, Type = 0xFFFFFFF2)  returns 0x00000002 (0000ms, 0132ms total)
T12C5C 000:156 JLINK_Go() (0002ms, 0134ms total)
T12C5C 000:158 JLINK_IsHalted()  returns TRUE (0003ms, 0137ms total)
T12C5C 000:161 JLINK_ReadReg(R15)  returns 0x1FFFF000 (0000ms, 0134ms total)
T12C5C 000:161 JLINK_ClrBPEx(BPHandle = 0x00000002)  returns 0x00 (0000ms, 0134ms total)
T12C5C 000:161 JLINK_ReadReg(R0)  returns 0x00000001 (0000ms, 0134ms total)
T12C5C 000:161 JLINK_WriteReg(R0, 0x00000000)  returns 0x00 (0000ms, 0134ms total)
T12C5C 000:161 JLINK_WriteReg(R1, 0x00000200)  returns 0x00 (0001ms, 0135ms total)
T12C5C 000:162 JLINK_WriteReg(R2, 0x000000FF)  returns 0x00 (0000ms, 0135ms total)
T12C5C 000:162 JLINK_WriteReg(R3, 0x00000000)  returns 0x00 (0000ms, 0135ms total)
T12C5C 000:162 JLINK_WriteReg(R4, 0x00000000)  returns 0x00 (0000ms, 0135ms total)
T12C5C 000:162 JLINK_WriteReg(R5, 0x00000000)  returns 0x00 (0000ms, 0135ms total)
T12C5C 000:162 JLINK_WriteReg(R6, 0x00000000)  returns 0x00 (0000ms, 0135ms total)
T12C5C 000:162 JLINK_WriteReg(R7, 0x00000000)  returns 0x00 (0000ms, 0135ms total)
T12C5C 000:162 JLINK_WriteReg(R8, 0x00000000)  returns 0x00 (0000ms, 0135ms total)
T12C5C 000:162 JLINK_WriteReg(R9, 0x1FFFF1A8)  returns 0x00 (0000ms, 0135ms total)
T12C5C 000:162 JLINK_WriteReg(R10, 0x00000000)  returns 0x00 (0000ms, 0135ms total)
T12C5C 000:162 JLINK_WriteReg(R11, 0x00000000)  returns 0x00 (0000ms, 0135ms total)
T12C5C 000:162 JLINK_WriteReg(R12, 0x00000000)  returns 0x00 (0000ms, 0135ms total)
T12C5C 000:162 JLINK_WriteReg(R13, 0x20000000)  returns 0x00 (0000ms, 0135ms total)
T12C5C 000:162 JLINK_WriteReg(R14, 0x1FFFF001)  returns 0x00 (0000ms, 0135ms total)
T12C5C 000:162 JLINK_WriteReg(R15, 0x1FFFF0DA)  returns 0x00 (0000ms, 0135ms total)
T12C5C 000:162 JLINK_WriteReg(XPSR, 0x01000000)  returns 0x00 (0000ms, 0135ms total)
T12C5C 000:162 JLINK_WriteReg(MSP, 0x20000000)  returns 0x00 (0001ms, 0136ms total)
T12C5C 000:163 JLINK_WriteReg(PSP, 0x20000000)  returns 0x00 (0000ms, 0136ms total)
T12C5C 000:163 JLINK_WriteReg(CFBP, 0x00000000)  returns 0x00 (0000ms, 0136ms total)
T12C5C 000:163 JLINK_SetBPEx(Addr = 0x1FFFF000, Type = 0xFFFFFFF2)  returns 0x00000003 (0000ms, 0136ms total)
T12C5C 000:163 JLINK_Go() (0001ms, 0137ms total)
T12C5C 000:164 JLINK_IsHalted()  returns FALSE (0001ms, 0138ms total)
T12C5C 000:271 JLINK_IsHalted()  returns TRUE (0003ms, 0140ms total)
T12C5C 000:274 JLINK_ReadReg(R15)  returns 0x1FFFF000 (0000ms, 0137ms total)
T12C5C 000:274 JLINK_ClrBPEx(BPHandle = 0x00000003)  returns 0x00 (0000ms, 0137ms total)
T12C5C 000:274 JLINK_ReadReg(R0)  returns 0x00000000 (0000ms, 0137ms total)
T12C5C 000:274 JLINK_WriteReg(R0, 0x00000200)  returns 0x00 (0000ms, 0137ms total)
T12C5C 000:274 JLINK_WriteReg(R1, 0x00000200)  returns 0x00 (0000ms, 0137ms total)
T12C5C 000:274 JLINK_WriteReg(R2, 0x000000FF)  returns 0x00 (0001ms, 0138ms total)
T12C5C 000:275 JLINK_WriteReg(R3, 0x00000000)  returns 0x00 (0000ms, 0138ms total)
T12C5C 000:275 JLINK_WriteReg(R4, 0x00000000)  returns 0x00 (0000ms, 0138ms total)
T12C5C 000:275 JLINK_WriteReg(R5, 0x00000000)  returns 0x00 (0000ms, 0138ms total)
T12C5C 000:275 JLINK_WriteReg(R6, 0x00000000)  returns 0x00 (0000ms, 0138ms total)
T12C5C 000:275 JLINK_WriteReg(R7, 0x00000000)  returns 0x00 (0000ms, 0138ms total)
T12C5C 000:275 JLINK_WriteReg(R8, 0x00000000)  returns 0x00 (0000ms, 0138ms total)
T12C5C 000:275 JLINK_WriteReg(R9, 0x1FFFF1A8)  returns 0x00 (0000ms, 0138ms total)
T12C5C 000:275 JLINK_WriteReg(R10, 0x00000000)  returns 0x00 (0000ms, 0138ms total)
T12C5C 000:275 JLINK_WriteReg(R11, 0x00000000)  returns 0x00 (0000ms, 0138ms total)
T12C5C 000:275 JLINK_WriteReg(R12, 0x00000000)  returns 0x00 (0000ms, 0138ms total)
T12C5C 000:275 JLINK_WriteReg(R13, 0x20000000)  returns 0x00 (0000ms, 0138ms total)
T12C5C 000:275 JLINK_WriteReg(R14, 0x1FFFF001)  returns 0x00 (0000ms, 0138ms total)
T12C5C 000:275 JLINK_WriteReg(R15, 0x1FFFF020)  returns 0x00 (0000ms, 0138ms total)
T12C5C 000:275 JLINK_WriteReg(XPSR, 0x01000000)  returns 0x00 (0000ms, 0138ms total)
T12C5C 000:275 JLINK_WriteReg(MSP, 0x20000000)  returns 0x00 (0000ms, 0138ms total)
T12C5C 000:275 JLINK_WriteReg(PSP, 0x20000000)  returns 0x00 (0000ms, 0138ms total)
T12C5C 000:275 JLINK_WriteReg(CFBP, 0x00000000)  returns 0x00 (0000ms, 0138ms total)
T12C5C 000:276 JLINK_SetBPEx(Addr = 0x1FFFF000, Type = 0xFFFFFFF2)  returns 0x00000004 (0000ms, 0139ms total)
T12C5C 000:276 JLINK_Go() (0001ms, 0140ms total)
T12C5C 000:277 JLINK_IsHalted()  returns TRUE (0004ms, 0144ms total)
T12C5C 000:281 JLINK_ReadReg(R15)  returns 0x1FFFF000 (0000ms, 0140ms total)
T12C5C 000:281 JLINK_ClrBPEx(BPHandle = 0x00000004)  returns 0x00 (0000ms, 0140ms total)
T12C5C 000:281 JLINK_ReadReg(R0)  returns 0x00000001 (0000ms, 0140ms total)
T12C5C 000:281 JLINK_WriteReg(R0, 0x00000200)  returns 0x00 (0000ms, 0140ms total)
T12C5C 000:281 JLINK_WriteReg(R1, 0x00000200)  returns 0x00 (0000ms, 0140ms total)
T12C5C 000:281 JLINK_WriteReg(R2, 0x000000FF)  returns 0x00 (0000ms, 0140ms total)
T12C5C 000:281 JLINK_WriteReg(R3, 0x00000000)  returns 0x00 (0000ms, 0140ms total)
T12C5C 000:281 JLINK_WriteReg(R4, 0x00000000)  returns 0x00 (0000ms, 0140ms total)
T12C5C 000:281 JLINK_WriteReg(R5, 0x00000000)  returns 0x00 (0000ms, 0140ms total)
T12C5C 000:281 JLINK_WriteReg(R6, 0x00000000)  returns 0x00 (0000ms, 0140ms total)
T12C5C 000:281 JLINK_WriteReg(R7, 0x00000000)  returns 0x00 (0000ms, 0140ms total)
T12C5C 000:281 JLINK_WriteReg(R8, 0x00000000)  returns 0x00 (0000ms, 0140ms total)
T12C5C 000:281 JLINK_WriteReg(R9, 0x1FFFF1A8)  returns 0x00 (0000ms, 0140ms total)
T12C5C 000:281 JLINK_WriteReg(R10, 0x00000000)  returns 0x00 (0000ms, 0140ms total)
T12C5C 000:281 JLINK_WriteReg(R11, 0x00000000)  returns 0x00 (0000ms, 0140ms total)
T12C5C 000:281 JLINK_WriteReg(R12, 0x00000000)  returns 0x00 (0000ms, 0140ms total)
T12C5C 000:281 JLINK_WriteReg(R13, 0x20000000)  returns 0x00 (0001ms, 0141ms total)
T12C5C 000:282 JLINK_WriteReg(R14, 0x1FFFF001)  returns 0x00 (0000ms, 0141ms total)
T12C5C 000:282 JLINK_WriteReg(R15, 0x1FFFF0DA)  returns 0x00 (0000ms, 0141ms total)
T12C5C 000:282 JLINK_WriteReg(XPSR, 0x01000000)  returns 0x00 (0000ms, 0141ms total)
T12C5C 000:282 JLINK_WriteReg(MSP, 0x20000000)  returns 0x00 (0000ms, 0141ms total)
T12C5C 000:282 JLINK_WriteReg(PSP, 0x20000000)  returns 0x00 (0000ms, 0141ms total)
T12C5C 000:282 JLINK_WriteReg(CFBP, 0x00000000)  returns 0x00 (0000ms, 0141ms total)
T12C5C 000:282 JLINK_SetBPEx(Addr = 0x1FFFF000, Type = 0xFFFFFFF2)  returns 0x00000005 (0000ms, 0141ms total)
T12C5C 000:282 JLINK_Go() (0001ms, 0142ms total)
T12C5C 000:284 JLINK_IsHalted()  returns FALSE (0000ms, 0143ms total)
T12C5C 000:374 JLINK_IsHalted()  returns TRUE (0004ms, 0147ms total)
T12C5C 000:378 JLINK_ReadReg(R15)  returns 0x1FFFF000 (0000ms, 0143ms total)
T12C5C 000:378 JLINK_ClrBPEx(BPHandle = 0x00000005)  returns 0x00 (0001ms, 0144ms total)
T12C5C 000:379 JLINK_ReadReg(R0)  returns 0x00000000 (0000ms, 0144ms total)
T12C5C 000:379 JLINK_WriteReg(R0, 0x00000400)  returns 0x00 (0001ms, 0145ms total)
T12C5C 000:380 JLINK_WriteReg(R1, 0x00000200)  returns 0x00 (0000ms, 0145ms total)
T12C5C 000:380 JLINK_WriteReg(R2, 0x000000FF)  returns 0x00 (0000ms, 0145ms total)
T12C5C 000:380 JLINK_WriteReg(R3, 0x00000000)  returns 0x00 (0000ms, 0145ms total)
T12C5C 000:380 JLINK_WriteReg(R4, 0x00000000)  returns 0x00 (0000ms, 0145ms total)
T12C5C 000:380 JLINK_WriteReg(R5, 0x00000000)  returns 0x00 (0000ms, 0145ms total)
T12C5C 000:380 JLINK_WriteReg(R6, 0x00000000)  returns 0x00 (0000ms, 0145ms total)
T12C5C 000:380 JLINK_WriteReg(R7, 0x00000000)  returns 0x00 (0000ms, 0145ms total)
T12C5C 000:380 JLINK_WriteReg(R8, 0x00000000)  returns 0x00 (0000ms, 0145ms total)
T12C5C 000:380 JLINK_WriteReg(R9, 0x1FFFF1A8)  returns 0x00 (0000ms, 0145ms total)
T12C5C 000:380 JLINK_WriteReg(R10, 0x00000000)  returns 0x00 (0000ms, 0145ms total)
T12C5C 000:380 JLINK_WriteReg(R11, 0x00000000)  returns 0x00 (0000ms, 0145ms total)
T12C5C 000:380 JLINK_WriteReg(R12, 0x00000000)  returns 0x00 (0000ms, 0145ms total)
T12C5C 000:380 JLINK_WriteReg(R13, 0x20000000)  returns 0x00 (0000ms, 0145ms total)
T12C5C 000:380 JLINK_WriteReg(R14, 0x1FFFF001)  returns 0x00 (0000ms, 0145ms total)
T12C5C 000:380 JLINK_WriteReg(R15, 0x1FFFF020)  returns 0x00 (0000ms, 0145ms total)
T12C5C 000:380 JLINK_WriteReg(XPSR, 0x01000000)  returns 0x00 (0001ms, 0146ms total)
T12C5C 000:381 JLINK_WriteReg(MSP, 0x20000000)  returns 0x00 (0000ms, 0146ms total)
T12C5C 000:381 JLINK_WriteReg(PSP, 0x20000000)  returns 0x00 (0000ms, 0146ms total)
T12C5C 000:381 JLINK_WriteReg(CFBP, 0x00000000)  returns 0x00 (0000ms, 0146ms total)
T12C5C 000:381 JLINK_SetBPEx(Addr = 0x1FFFF000, Type = 0xFFFFFFF2)  returns 0x00000006 (0000ms, 0146ms total)
T12C5C 000:381 JLINK_Go() (0002ms, 0148ms total)
T12C5C 000:383 JLINK_IsHalted()  returns TRUE (0003ms, 0151ms total)
T12C5C 000:386 JLINK_ReadReg(R15)  returns 0x1FFFF000 (0000ms, 0148ms total)
T12C5C 000:386 JLINK_ClrBPEx(BPHandle = 0x00000006)  returns 0x00 (0000ms, 0148ms total)
T12C5C 000:386 JLINK_ReadReg(R0)  returns 0x00000001 (0000ms, 0148ms total)
T12C5C 000:386 JLINK_WriteReg(R0, 0x00000400)  returns 0x00 (0000ms, 0148ms total)
T12C5C 000:386 JLINK_WriteReg(R1, 0x00000200)  returns 0x00 (0000ms, 0148ms total)
T12C5C 000:386 JLINK_WriteReg(R2, 0x000000FF)  returns 0x00 (0000ms, 0148ms total)
T12C5C 000:386 JLINK_WriteReg(R3, 0x00000000)  returns 0x00 (0000ms, 0148ms total)
T12C5C 000:386 JLINK_WriteReg(R4, 0x00000000)  returns 0x00 (0000ms, 0148ms total)
T12C5C 000:386 JLINK_WriteReg(R5, 0x00000000)  returns 0x00 (0000ms, 0148ms total)
T12C5C 000:386 JLINK_WriteReg(R6, 0x00000000)  returns 0x00 (0000ms, 0148ms total)
T12C5C 000:386 JLINK_WriteReg(R7, 0x00000000)  returns 0x00 (0000ms, 0148ms total)
T12C5C 000:386 JLINK_WriteReg(R8, 0x00000000)  returns 0x00 (0000ms, 0148ms total)
T12C5C 000:386 JLINK_WriteReg(R9, 0x1FFFF1A8)  returns 0x00 (0000ms, 0148ms total)
T12C5C 000:387 JLINK_WriteReg(R10, 0x00000000)  returns 0x00 (0000ms, 0149ms total)
T12C5C 000:387 JLINK_WriteReg(R11, 0x00000000)  returns 0x00 (0000ms, 0149ms total)
T12C5C 000:387 JLINK_WriteReg(R12, 0x00000000)  returns 0x00 (0000ms, 0149ms total)
T12C5C 000:387 JLINK_WriteReg(R13, 0x20000000)  returns 0x00 (0000ms, 0149ms total)
T12C5C 000:387 JLINK_WriteReg(R14, 0x1FFFF001)  returns 0x00 (0000ms, 0149ms total)
T12C5C 000:387 JLINK_WriteReg(R15, 0x1FFFF0DA)  returns 0x00 (0000ms, 0149ms total)
T12C5C 000:387 JLINK_WriteReg(XPSR, 0x01000000)  returns 0x00 (0000ms, 0149ms total)
T12C5C 000:387 JLINK_WriteReg(MSP, 0x20000000)  returns 0x00 (0000ms, 0149ms total)
T12C5C 000:387 JLINK_WriteReg(PSP, 0x20000000)  returns 0x00 (0000ms, 0149ms total)
T12C5C 000:387 JLINK_WriteReg(CFBP, 0x00000000)  returns 0x00 (0000ms, 0149ms total)
T12C5C 000:387 JLINK_SetBPEx(Addr = 0x1FFFF000, Type = 0xFFFFFFF2)  returns 0x00000007 (0000ms, 0149ms total)
T12C5C 000:387 JLINK_Go() (0002ms, 0151ms total)
T12C5C 000:389 JLINK_IsHalted()  returns FALSE (0000ms, 0151ms total)
T12C5C 000:520 JLINK_IsHalted()  returns TRUE (0004ms, 0155ms total)
T12C5C 000:524 JLINK_ReadReg(R15)  returns 0x1FFFF000 (0000ms, 0151ms total)
T12C5C 000:524 JLINK_ClrBPEx(BPHandle = 0x00000007)  returns 0x00 (0000ms, 0151ms total)
T12C5C 000:524 JLINK_ReadReg(R0)  returns 0x00000000 (0000ms, 0151ms total)
T12C5C 000:526 JLINK_WriteReg(R0, 0x00000600)  returns 0x00 (0000ms, 0151ms total)
T12C5C 000:526 JLINK_WriteReg(R1, 0x00000200)  returns 0x00 (0000ms, 0151ms total)
T12C5C 000:526 JLINK_WriteReg(R2, 0x000000FF)  returns 0x00 (0000ms, 0151ms total)
T12C5C 000:526 JLINK_WriteReg(R3, 0x00000000)  returns 0x00 (0000ms, 0151ms total)
T12C5C 000:526 JLINK_WriteReg(R4, 0x00000000)  returns 0x00 (0000ms, 0151ms total)
T12C5C 000:526 JLINK_WriteReg(R5, 0x00000000)  returns 0x00 (0000ms, 0151ms total)
T12C5C 000:527 JLINK_WriteReg(R6, 0x00000000)  returns 0x00 (0000ms, 0152ms total)
T12C5C 000:527 JLINK_WriteReg(R7, 0x00000000)  returns 0x00 (0000ms, 0152ms total)
T12C5C 000:527 JLINK_WriteReg(R8, 0x00000000)  returns 0x00 (0000ms, 0152ms total)
T12C5C 000:527 JLINK_WriteReg(R9, 0x1FFFF1A8)  returns 0x00 (0000ms, 0152ms total)
T12C5C 000:527 JLINK_WriteReg(R10, 0x00000000)  returns 0x00 (0000ms, 0152ms total)
T12C5C 000:527 JLINK_WriteReg(R11, 0x00000000)  returns 0x00 (0000ms, 0152ms total)
T12C5C 000:527 JLINK_WriteReg(R12, 0x00000000)  returns 0x00 (0000ms, 0152ms total)
T12C5C 000:527 JLINK_WriteReg(R13, 0x20000000)  returns 0x00 (0000ms, 0152ms total)
T12C5C 000:527 JLINK_WriteReg(R14, 0x1FFFF001)  returns 0x00 (0000ms, 0152ms total)
T12C5C 000:527 JLINK_WriteReg(R15, 0x1FFFF020)  returns 0x00 (0000ms, 0152ms total)
T12C5C 000:527 JLINK_WriteReg(XPSR, 0x01000000)  returns 0x00 (0000ms, 0152ms total)
T12C5C 000:527 JLINK_WriteReg(MSP, 0x20000000)  returns 0x00 (0001ms, 0153ms total)
T12C5C 000:528 JLINK_WriteReg(PSP, 0x20000000)  returns 0x00 (0000ms, 0153ms total)
T12C5C 000:528 JLINK_WriteReg(CFBP, 0x00000000)  returns 0x00 (0000ms, 0153ms total)
T12C5C 000:528 JLINK_SetBPEx(Addr = 0x1FFFF000, Type = 0xFFFFFFF2)  returns 0x00000008 (0000ms, 0153ms total)
T12C5C 000:528 JLINK_Go() (0001ms, 0154ms total)
T12C5C 000:529 JLINK_IsHalted()  returns TRUE (0004ms, 0158ms total)
T12C5C 000:533 JLINK_ReadReg(R15)  returns 0x1FFFF000 (0000ms, 0154ms total)
T12C5C 000:533 JLINK_ClrBPEx(BPHandle = 0x00000008)  returns 0x00 (0000ms, 0154ms total)
T12C5C 000:533 JLINK_ReadReg(R0)  returns 0x00000001 (0000ms, 0154ms total)
T12C5C 000:533 JLINK_WriteReg(R0, 0x00000600)  returns 0x00 (0000ms, 0154ms total)
T12C5C 000:533 JLINK_WriteReg(R1, 0x00000200)  returns 0x00 (0000ms, 0154ms total)
T12C5C 000:533 JLINK_WriteReg(R2, 0x000000FF)  returns 0x00 (0000ms, 0154ms total)
T12C5C 000:533 JLINK_WriteReg(R3, 0x00000000)  returns 0x00 (0000ms, 0154ms total)
T12C5C 000:533 JLINK_WriteReg(R4, 0x00000000)  returns 0x00 (0000ms, 0154ms total)
T12C5C 000:533 JLINK_WriteReg(R5, 0x00000000)  returns 0x00 (0000ms, 0154ms total)
T12C5C 000:533 JLINK_WriteReg(R6, 0x00000000)  returns 0x00 (0000ms, 0154ms total)
T12C5C 000:533 JLINK_WriteReg(R7, 0x00000000)  returns 0x00 (0000ms, 0154ms total)
T12C5C 000:533 JLINK_WriteReg(R8, 0x00000000)  returns 0x00 (0000ms, 0154ms total)
T12C5C 000:533 JLINK_WriteReg(R9, 0x1FFFF1A8)  returns 0x00 (0001ms, 0155ms total)
T12C5C 000:534 JLINK_WriteReg(R10, 0x00000000)  returns 0x00 (0000ms, 0155ms total)
T12C5C 000:534 JLINK_WriteReg(R11, 0x00000000)  returns 0x00 (0000ms, 0155ms total)
T12C5C 000:534 JLINK_WriteReg(R12, 0x00000000)  returns 0x00 (0000ms, 0155ms total)
T12C5C 000:534 JLINK_WriteReg(R13, 0x20000000)  returns 0x00 (0000ms, 0155ms total)
T12C5C 000:534 JLINK_WriteReg(R14, 0x1FFFF001)  returns 0x00 (0000ms, 0155ms total)
T12C5C 000:534 JLINK_WriteReg(R15, 0x1FFFF0DA)  returns 0x00 (0000ms, 0155ms total)
T12C5C 000:534 JLINK_WriteReg(XPSR, 0x01000000)  returns 0x00 (0000ms, 0155ms total)
T12C5C 000:534 JLINK_WriteReg(MSP, 0x20000000)  returns 0x00 (0000ms, 0155ms total)
T12C5C 000:534 JLINK_WriteReg(PSP, 0x20000000)  returns 0x00 (0000ms, 0155ms total)
T12C5C 000:534 JLINK_WriteReg(CFBP, 0x00000000)  returns 0x00 (0000ms, 0155ms total)
T12C5C 000:534 JLINK_SetBPEx(Addr = 0x1FFFF000, Type = 0xFFFFFFF2)  returns 0x00000009 (0000ms, 0155ms total)
T12C5C 000:534 JLINK_Go() (0002ms, 0157ms total)
T12C5C 000:536 JLINK_IsHalted()  returns FALSE (0000ms, 0157ms total)
T12C5C 000:645 JLINK_IsHalted()  returns TRUE (0004ms, 0161ms total)
T12C5C 000:649 JLINK_ReadReg(R15)  returns 0x1FFFF000 (0000ms, 0157ms total)
T12C5C 000:649 JLINK_ClrBPEx(BPHandle = 0x00000009)  returns 0x00 (0000ms, 0157ms total)
T12C5C 000:649 JLINK_ReadReg(R0)  returns 0x00000000 (0000ms, 0157ms total)
T12C5C 000:649 JLINK_WriteReg(R0, 0x00000800)  returns 0x00 (0001ms, 0158ms total)
T12C5C 000:650 JLINK_WriteReg(R1, 0x00000200)  returns 0x00 (0000ms, 0158ms total)
T12C5C 000:650 JLINK_WriteReg(R2, 0x000000FF)  returns 0x00 (0000ms, 0158ms total)
T12C5C 000:650 JLINK_WriteReg(R3, 0x00000000)  returns 0x00 (0000ms, 0158ms total)
T12C5C 000:650 JLINK_WriteReg(R4, 0x00000000)  returns 0x00 (0000ms, 0158ms total)
T12C5C 000:650 JLINK_WriteReg(R5, 0x00000000)  returns 0x00 (0000ms, 0158ms total)
T12C5C 000:650 JLINK_WriteReg(R6, 0x00000000)  returns 0x00 (0000ms, 0158ms total)
T12C5C 000:650 JLINK_WriteReg(R7, 0x00000000)  returns 0x00 (0000ms, 0158ms total)
T12C5C 000:650 JLINK_WriteReg(R8, 0x00000000)  returns 0x00 (0000ms, 0158ms total)
T12C5C 000:650 JLINK_WriteReg(R9, 0x1FFFF1A8)  returns 0x00 (0000ms, 0158ms total)
T12C5C 000:650 JLINK_WriteReg(R10, 0x00000000)  returns 0x00 (0000ms, 0158ms total)
T12C5C 000:650 JLINK_WriteReg(R11, 0x00000000)  returns 0x00 (0000ms, 0158ms total)
T12C5C 000:650 JLINK_WriteReg(R12, 0x00000000)  returns 0x00 (0000ms, 0158ms total)
T12C5C 000:650 JLINK_WriteReg(R13, 0x20000000)  returns 0x00 (0000ms, 0158ms total)
T12C5C 000:650 JLINK_WriteReg(R14, 0x1FFFF001)  returns 0x00 (0000ms, 0158ms total)
T12C5C 000:650 JLINK_WriteReg(R15, 0x1FFFF020)  returns 0x00 (0000ms, 0158ms total)
T12C5C 000:650 JLINK_WriteReg(XPSR, 0x01000000)  returns 0x00 (0001ms, 0159ms total)
T12C5C 000:651 JLINK_WriteReg(MSP, 0x20000000)  returns 0x00 (0000ms, 0159ms total)
T12C5C 000:651 JLINK_WriteReg(PSP, 0x20000000)  returns 0x00 (0000ms, 0159ms total)
T12C5C 000:651 JLINK_WriteReg(CFBP, 0x00000000)  returns 0x00 (0000ms, 0159ms total)
T12C5C 000:651 JLINK_SetBPEx(Addr = 0x1FFFF000, Type = 0xFFFFFFF2)  returns 0x0000000A (0000ms, 0159ms total)
T12C5C 000:651 JLINK_Go() (0001ms, 0160ms total)
T12C5C 000:652 JLINK_IsHalted()  returns TRUE (0004ms, 0164ms total)
T12C5C 000:656 JLINK_ReadReg(R15)  returns 0x1FFFF000 (0000ms, 0160ms total)
T12C5C 000:656 JLINK_ClrBPEx(BPHandle = 0x0000000A)  returns 0x00 (0000ms, 0160ms total)
T12C5C 000:656 JLINK_ReadReg(R0)  returns 0x00000001 (0000ms, 0160ms total)
T12C5C 000:656 JLINK_WriteReg(R0, 0x00000800)  returns 0x00 (0000ms, 0160ms total)
T12C5C 000:656 JLINK_WriteReg(R1, 0x00000200)  returns 0x00 (0000ms, 0160ms total)
T12C5C 000:656 JLINK_WriteReg(R2, 0x000000FF)  returns 0x00 (0000ms, 0160ms total)
T12C5C 000:656 JLINK_WriteReg(R3, 0x00000000)  returns 0x00 (0000ms, 0160ms total)
T12C5C 000:656 JLINK_WriteReg(R4, 0x00000000)  returns 0x00 (0000ms, 0160ms total)
T12C5C 000:656 JLINK_WriteReg(R5, 0x00000000)  returns 0x00 (0000ms, 0160ms total)
T12C5C 000:656 JLINK_WriteReg(R6, 0x00000000)  returns 0x00 (0000ms, 0160ms total)
T12C5C 000:656 JLINK_WriteReg(R7, 0x00000000)  returns 0x00 (0000ms, 0160ms total)
T12C5C 000:656 JLINK_WriteReg(R8, 0x00000000)  returns 0x00 (0000ms, 0160ms total)
T12C5C 000:656 JLINK_WriteReg(R9, 0x1FFFF1A8)  returns 0x00 (0001ms, 0161ms total)
T12C5C 000:657 JLINK_WriteReg(R10, 0x00000000)  returns 0x00 (0000ms, 0161ms total)
T12C5C 000:657 JLINK_WriteReg(R11, 0x00000000)  returns 0x00 (0000ms, 0161ms total)
T12C5C 000:657 JLINK_WriteReg(R12, 0x00000000)  returns 0x00 (0000ms, 0161ms total)
T12C5C 000:657 JLINK_WriteReg(R13, 0x20000000)  returns 0x00 (0000ms, 0161ms total)
T12C5C 000:657 JLINK_WriteReg(R14, 0x1FFFF001)  returns 0x00 (0000ms, 0161ms total)
T12C5C 000:657 JLINK_WriteReg(R15, 0x1FFFF0DA)  returns 0x00 (0000ms, 0161ms total)
T12C5C 000:657 JLINK_WriteReg(XPSR, 0x01000000)  returns 0x00 (0000ms, 0161ms total)
T12C5C 000:657 JLINK_WriteReg(MSP, 0x20000000)  returns 0x00 (0000ms, 0161ms total)
T12C5C 000:657 JLINK_WriteReg(PSP, 0x20000000)  returns 0x00 (0000ms, 0161ms total)
T12C5C 000:657 JLINK_WriteReg(CFBP, 0x00000000)  returns 0x00 (0000ms, 0161ms total)
T12C5C 000:657 JLINK_SetBPEx(Addr = 0x1FFFF000, Type = 0xFFFFFFF2)  returns 0x0000000B (0000ms, 0161ms total)
T12C5C 000:658 JLINK_Go() (0001ms, 0163ms total)
T12C5C 000:659 JLINK_IsHalted()  returns FALSE (0001ms, 0164ms total)
T12C5C 000:736 JLINK_IsHalted()  returns TRUE (0003ms, 0166ms total)
T12C5C 000:739 JLINK_ReadReg(R15)  returns 0x1FFFF000 (0000ms, 0163ms total)
T12C5C 000:739 JLINK_ClrBPEx(BPHandle = 0x0000000B)  returns 0x00 (0001ms, 0164ms total)
T12C5C 000:740 JLINK_ReadReg(R0)  returns 0x00000000 (0000ms, 0164ms total)
T12C5C 000:740 JLINK_WriteReg(R0, 0x00000A00)  returns 0x00 (0000ms, 0164ms total)
T12C5C 000:740 JLINK_WriteReg(R1, 0x00000200)  returns 0x00 (0000ms, 0164ms total)
T12C5C 000:740 JLINK_WriteReg(R2, 0x000000FF)  returns 0x00 (0001ms, 0165ms total)
T12C5C 000:741 JLINK_WriteReg(R3, 0x00000000)  returns 0x00 (0000ms, 0165ms total)
T12C5C 000:741 JLINK_WriteReg(R4, 0x00000000)  returns 0x00 (0000ms, 0165ms total)
T12C5C 000:741 JLINK_WriteReg(R5, 0x00000000)  returns 0x00 (0000ms, 0165ms total)
T12C5C 000:741 JLINK_WriteReg(R6, 0x00000000)  returns 0x00 (0000ms, 0165ms total)
T12C5C 000:741 JLINK_WriteReg(R7, 0x00000000)  returns 0x00 (0000ms, 0165ms total)
T12C5C 000:741 JLINK_WriteReg(R8, 0x00000000)  returns 0x00 (0000ms, 0165ms total)
T12C5C 000:741 JLINK_WriteReg(R9, 0x1FFFF1A8)  returns 0x00 (0000ms, 0165ms total)
T12C5C 000:741 JLINK_WriteReg(R10, 0x00000000)  returns 0x00 (0000ms, 0165ms total)
T12C5C 000:741 JLINK_WriteReg(R11, 0x00000000)  returns 0x00 (0000ms, 0165ms total)
T12C5C 000:741 JLINK_WriteReg(R12, 0x00000000)  returns 0x00 (0000ms, 0165ms total)
T12C5C 000:741 JLINK_WriteReg(R13, 0x20000000)  returns 0x00 (0000ms, 0165ms total)
T12C5C 000:741 JLINK_WriteReg(R14, 0x1FFFF001)  returns 0x00 (0000ms, 0165ms total)
T12C5C 000:741 JLINK_WriteReg(R15, 0x1FFFF020)  returns 0x00 (0001ms, 0166ms total)
T12C5C 000:742 JLINK_WriteReg(XPSR, 0x01000000)  returns 0x00 (0000ms, 0166ms total)
T12C5C 000:742 JLINK_WriteReg(MSP, 0x20000000)  returns 0x00 (0000ms, 0166ms total)
T12C5C 000:742 JLINK_WriteReg(PSP, 0x20000000)  returns 0x00 (0000ms, 0166ms total)
T12C5C 000:742 JLINK_WriteReg(CFBP, 0x00000000)  returns 0x00 (0000ms, 0166ms total)
T12C5C 000:742 JLINK_SetBPEx(Addr = 0x1FFFF000, Type = 0xFFFFFFF2)  returns 0x0000000C (0000ms, 0166ms total)
T12C5C 000:742 JLINK_Go() (0002ms, 0168ms total)
T12C5C 000:744 JLINK_IsHalted()  returns TRUE (0003ms, 0171ms total)
T12C5C 000:747 JLINK_ReadReg(R15)  returns 0x1FFFF000 (0000ms, 0168ms total)
T12C5C 000:748 JLINK_ClrBPEx(BPHandle = 0x0000000C)  returns 0x00 (0000ms, 0169ms total)
T12C5C 000:748 JLINK_ReadReg(R0)  returns 0x00000001 (0000ms, 0169ms total)
T12C5C 000:748 JLINK_WriteReg(R0, 0x00000A00)  returns 0x00 (0000ms, 0169ms total)
T12C5C 000:748 JLINK_WriteReg(R1, 0x00000200)  returns 0x00 (0000ms, 0169ms total)
T12C5C 000:748 JLINK_WriteReg(R2, 0x000000FF)  returns 0x00 (0000ms, 0169ms total)
T12C5C 000:748 JLINK_WriteReg(R3, 0x00000000)  returns 0x00 (0000ms, 0169ms total)
T12C5C 000:748 JLINK_WriteReg(R4, 0x00000000)  returns 0x00 (0000ms, 0169ms total)
T12C5C 000:748 JLINK_WriteReg(R5, 0x00000000)  returns 0x00 (0000ms, 0169ms total)
T12C5C 000:748 JLINK_WriteReg(R6, 0x00000000)  returns 0x00 (0000ms, 0169ms total)
T12C5C 000:748 JLINK_WriteReg(R7, 0x00000000)  returns 0x00 (0001ms, 0170ms total)
T12C5C 000:749 JLINK_WriteReg(R8, 0x00000000)  returns 0x00 (0000ms, 0170ms total)
T12C5C 000:749 JLINK_WriteReg(R9, 0x1FFFF1A8)  returns 0x00 (0000ms, 0170ms total)
T12C5C 000:749 JLINK_WriteReg(R10, 0x00000000)  returns 0x00 (0000ms, 0170ms total)
T12C5C 000:749 JLINK_WriteReg(R11, 0x00000000)  returns 0x00 (0000ms, 0170ms total)
T12C5C 000:749 JLINK_WriteReg(R12, 0x00000000)  returns 0x00 (0000ms, 0170ms total)
T12C5C 000:749 JLINK_WriteReg(R13, 0x20000000)  returns 0x00 (0000ms, 0170ms total)
T12C5C 000:749 JLINK_WriteReg(R14, 0x1FFFF001)  returns 0x00 (0000ms, 0170ms total)
T12C5C 000:749 JLINK_WriteReg(R15, 0x1FFFF0DA)  returns 0x00 (0000ms, 0170ms total)
T12C5C 000:749 JLINK_WriteReg(XPSR, 0x01000000)  returns 0x00 (0000ms, 0170ms total)
T12C5C 000:749 JLINK_WriteReg(MSP, 0x20000000)  returns 0x00 (0000ms, 0170ms total)
T12C5C 000:749 JLINK_WriteReg(PSP, 0x20000000)  returns 0x00 (0000ms, 0170ms total)
T12C5C 000:749 JLINK_WriteReg(CFBP, 0x00000000)  returns 0x00 (0000ms, 0170ms total)
T12C5C 000:749 JLINK_SetBPEx(Addr = 0x1FFFF000, Type = 0xFFFFFFF2)  returns 0x0000000D (0000ms, 0170ms total)
T12C5C 000:749 JLINK_Go() (0002ms, 0172ms total)
T12C5C 000:751 JLINK_IsHalted()  returns FALSE (0000ms, 0172ms total)
T12C5C 000:753 JLINK_IsHalted()  returns FALSE (0001ms, 0173ms total)
T12C5C 000:755 JLINK_IsHalted()  returns FALSE (0001ms, 0173ms total)
T12C5C 000:760 JLINK_IsHalted()  returns FALSE (0001ms, 0173ms total)
T12C5C 000:762 JLINK_IsHalted()  returns FALSE (0001ms, 0173ms total)
T12C5C 000:764 JLINK_IsHalted()  returns FALSE (0001ms, 0173ms total)
T12C5C 000:766 JLINK_IsHalted()  returns FALSE (0001ms, 0173ms total)
T12C5C 000:768 JLINK_IsHalted()  returns FALSE (0001ms, 0173ms total)
T12C5C 000:770 JLINK_IsHalted()  returns FALSE (0001ms, 0173ms total)
T12C5C 000:773 JLINK_IsHalted()  returns FALSE (0000ms, 0172ms total)
T12C5C 000:775 JLINK_IsHalted()  returns FALSE (0000ms, 0172ms total)
T12C5C 000:777 JLINK_IsHalted()  returns FALSE (0001ms, 0173ms total)
T12C5C 000:779 JLINK_IsHalted()  returns TRUE (0003ms, 0175ms total)
T12C5C 000:782 JLINK_ReadReg(R15)  returns 0x1FFFF000 (0000ms, 0172ms total)
T12C5C 000:782 JLINK_ClrBPEx(BPHandle = 0x0000000D)  returns 0x00 (0000ms, 0172ms total)
T12C5C 000:782 JLINK_ReadReg(R0)  returns 0x00000000 (0000ms, 0172ms total)
T12C5C 000:783 JLINK_WriteReg(R0, 0x00000C00)  returns 0x00 (0000ms, 0172ms total)
T12C5C 000:783 JLINK_WriteReg(R1, 0x00000200)  returns 0x00 (0000ms, 0172ms total)
T12C5C 000:783 JLINK_WriteReg(R2, 0x000000FF)  returns 0x00 (0000ms, 0172ms total)
T12C5C 000:783 JLINK_WriteReg(R3, 0x00000000)  returns 0x00 (0000ms, 0172ms total)
T12C5C 000:783 JLINK_WriteReg(R4, 0x00000000)  returns 0x00 (0000ms, 0172ms total)
T12C5C 000:783 JLINK_WriteReg(R5, 0x00000000)  returns 0x00 (0000ms, 0172ms total)
T12C5C 000:783 JLINK_WriteReg(R6, 0x00000000)  returns 0x00 (0000ms, 0172ms total)
T12C5C 000:783 JLINK_WriteReg(R7, 0x00000000)  returns 0x00 (0000ms, 0172ms total)
T12C5C 000:783 JLINK_WriteReg(R8, 0x00000000)  returns 0x00 (0000ms, 0172ms total)
T12C5C 000:783 JLINK_WriteReg(R9, 0x1FFFF1A8)  returns 0x00 (0000ms, 0172ms total)
T12C5C 000:783 JLINK_WriteReg(R10, 0x00000000)  returns 0x00 (0000ms, 0172ms total)
T12C5C 000:783 JLINK_WriteReg(R11, 0x00000000)  returns 0x00 (0000ms, 0172ms total)
T12C5C 000:783 JLINK_WriteReg(R12, 0x00000000)  returns 0x00 (0000ms, 0172ms total)
T12C5C 000:783 JLINK_WriteReg(R13, 0x20000000)  returns 0x00 (0001ms, 0173ms total)
T12C5C 000:784 JLINK_WriteReg(R14, 0x1FFFF001)  returns 0x00 (0000ms, 0173ms total)
T12C5C 000:784 JLINK_WriteReg(R15, 0x1FFFF020)  returns 0x00 (0000ms, 0173ms total)
T12C5C 000:784 JLINK_WriteReg(XPSR, 0x01000000)  returns 0x00 (0000ms, 0173ms total)
T12C5C 000:784 JLINK_WriteReg(MSP, 0x20000000)  returns 0x00 (0000ms, 0173ms total)
T12C5C 000:784 JLINK_WriteReg(PSP, 0x20000000)  returns 0x00 (0000ms, 0173ms total)
T12C5C 000:784 JLINK_WriteReg(CFBP, 0x00000000)  returns 0x00 (0000ms, 0173ms total)
T12C5C 000:784 JLINK_SetBPEx(Addr = 0x1FFFF000, Type = 0xFFFFFFF2)  returns 0x0000000E (0000ms, 0173ms total)
T12C5C 000:784 JLINK_Go() (0002ms, 0175ms total)
T12C5C 000:786 JLINK_IsHalted()  returns TRUE (0003ms, 0178ms total)
T12C5C 000:789 JLINK_ReadReg(R15)  returns 0x1FFFF000 (0000ms, 0175ms total)
T12C5C 000:789 JLINK_ClrBPEx(BPHandle = 0x0000000E)  returns 0x00 (0000ms, 0175ms total)
T12C5C 000:789 JLINK_ReadReg(R0)  returns 0x00000001 (0000ms, 0175ms total)
T12C5C 000:789 JLINK_WriteReg(R0, 0x00000C00)  returns 0x00 (0000ms, 0175ms total)
T12C5C 000:789 JLINK_WriteReg(R1, 0x00000200)  returns 0x00 (0000ms, 0175ms total)
T12C5C 000:789 JLINK_WriteReg(R2, 0x000000FF)  returns 0x00 (0000ms, 0175ms total)
T12C5C 000:789 JLINK_WriteReg(R3, 0x00000000)  returns 0x00 (0000ms, 0175ms total)
T12C5C 000:789 JLINK_WriteReg(R4, 0x00000000)  returns 0x00 (0000ms, 0175ms total)
T12C5C 000:789 JLINK_WriteReg(R5, 0x00000000)  returns 0x00 (0000ms, 0175ms total)
T12C5C 000:789 JLINK_WriteReg(R6, 0x00000000)  returns 0x00 (0000ms, 0175ms total)
T12C5C 000:789 JLINK_WriteReg(R7, 0x00000000)  returns 0x00 (0001ms, 0176ms total)
T12C5C 000:790 JLINK_WriteReg(R8, 0x00000000)  returns 0x00 (0000ms, 0176ms total)
T12C5C 000:790 JLINK_WriteReg(R9, 0x1FFFF1A8)  returns 0x00 (0000ms, 0176ms total)
T12C5C 000:790 JLINK_WriteReg(R10, 0x00000000)  returns 0x00 (0000ms, 0176ms total)
T12C5C 000:790 JLINK_WriteReg(R11, 0x00000000)  returns 0x00 (0000ms, 0176ms total)
T12C5C 000:790 JLINK_WriteReg(R12, 0x00000000)  returns 0x00 (0000ms, 0176ms total)
T12C5C 000:790 JLINK_WriteReg(R13, 0x20000000)  returns 0x00 (0000ms, 0176ms total)
T12C5C 000:790 JLINK_WriteReg(R14, 0x1FFFF001)  returns 0x00 (0000ms, 0176ms total)
T12C5C 000:790 JLINK_WriteReg(R15, 0x1FFFF0DA)  returns 0x00 (0000ms, 0176ms total)
T12C5C 000:790 JLINK_WriteReg(XPSR, 0x01000000)  returns 0x00 (0000ms, 0176ms total)
T12C5C 000:790 JLINK_WriteReg(MSP, 0x20000000)  returns 0x00 (0000ms, 0176ms total)
T12C5C 000:790 JLINK_WriteReg(PSP, 0x20000000)  returns 0x00 (0000ms, 0176ms total)
T12C5C 000:790 JLINK_WriteReg(CFBP, 0x00000000)  returns 0x00 (0000ms, 0176ms total)
T12C5C 000:790 JLINK_SetBPEx(Addr = 0x1FFFF000, Type = 0xFFFFFFF2)  returns 0x0000000F (0000ms, 0176ms total)
T12C5C 000:790 JLINK_Go() (0002ms, 0178ms total)
T12C5C 000:792 JLINK_IsHalted()  returns FALSE (0000ms, 0178ms total)
T12C5C 000:794 JLINK_IsHalted()  returns FALSE (0000ms, 0178ms total)
T12C5C 000:796 JLINK_IsHalted()  returns FALSE (0000ms, 0178ms total)
T12C5C 000:798 JLINK_IsHalted()  returns FALSE (0000ms, 0178ms total)
T12C5C 000:800 JLINK_IsHalted()  returns FALSE (0000ms, 0178ms total)
T12C5C 000:803 JLINK_IsHalted()  returns FALSE (0001ms, 0179ms total)
T12C5C 000:805 JLINK_IsHalted()  returns FALSE (0000ms, 0178ms total)
T12C5C 000:808 JLINK_IsHalted()  returns FALSE (0000ms, 0178ms total)
T12C5C 000:810 JLINK_IsHalted()  returns FALSE (0000ms, 0178ms total)
T12C5C 000:812 JLINK_IsHalted()  returns FALSE (0000ms, 0178ms total)
T12C5C 000:814 JLINK_IsHalted()  returns FALSE (0000ms, 0178ms total)
T12C5C 000:816 JLINK_IsHalted()  returns FALSE (0000ms, 0178ms total)
T12C5C 000:818 JLINK_IsHalted()  returns FALSE (0000ms, 0178ms total)
T12C5C 000:820 JLINK_IsHalted()  returns FALSE (0000ms, 0178ms total)
T12C5C 000:822 JLINK_IsHalted()  returns TRUE (0003ms, 0181ms total)
T12C5C 000:825 JLINK_ReadReg(R15)  returns 0x1FFFF000 (0000ms, 0178ms total)
T12C5C 000:825 JLINK_ClrBPEx(BPHandle = 0x0000000F)  returns 0x00 (0000ms, 0178ms total)
T12C5C 000:825 JLINK_ReadReg(R0)  returns 0x00000000 (0000ms, 0178ms total)
T12C5C 000:826 JLINK_WriteReg(R0, 0x00000E00)  returns 0x00 (0000ms, 0178ms total)
T12C5C 000:826 JLINK_WriteReg(R1, 0x00000200)  returns 0x00 (0000ms, 0178ms total)
T12C5C 000:826 JLINK_WriteReg(R2, 0x000000FF)  returns 0x00 (0000ms, 0178ms total)
T12C5C 000:826 JLINK_WriteReg(R3, 0x00000000)  returns 0x00 (0000ms, 0178ms total)
T12C5C 000:826 JLINK_WriteReg(R4, 0x00000000)  returns 0x00 (0000ms, 0178ms total)
T12C5C 000:827 JLINK_WriteReg(R5, 0x00000000)  returns 0x00 (0000ms, 0178ms total)
T12C5C 000:827 JLINK_WriteReg(R6, 0x00000000)  returns 0x00 (0000ms, 0178ms total)
T12C5C 000:827 JLINK_WriteReg(R7, 0x00000000)  returns 0x00 (0000ms, 0178ms total)
T12C5C 000:827 JLINK_WriteReg(R8, 0x00000000)  returns 0x00 (0000ms, 0178ms total)
T12C5C 000:827 JLINK_WriteReg(R9, 0x1FFFF1A8)  returns 0x00 (0000ms, 0178ms total)
T12C5C 000:827 JLINK_WriteReg(R10, 0x00000000)  returns 0x00 (0000ms, 0178ms total)
T12C5C 000:827 JLINK_WriteReg(R11, 0x00000000)  returns 0x00 (0000ms, 0178ms total)
T12C5C 000:827 JLINK_WriteReg(R12, 0x00000000)  returns 0x00 (0000ms, 0178ms total)
T12C5C 000:827 JLINK_WriteReg(R13, 0x20000000)  returns 0x00 (0000ms, 0178ms total)
T12C5C 000:827 JLINK_WriteReg(R14, 0x1FFFF001)  returns 0x00 (0001ms, 0179ms total)
T12C5C 000:828 JLINK_WriteReg(R15, 0x1FFFF020)  returns 0x00 (0000ms, 0179ms total)
T12C5C 000:828 JLINK_WriteReg(XPSR, 0x01000000)  returns 0x00 (0000ms, 0179ms total)
T12C5C 000:828 JLINK_WriteReg(MSP, 0x20000000)  returns 0x00 (0000ms, 0179ms total)
T12C5C 000:828 JLINK_WriteReg(PSP, 0x20000000)  returns 0x00 (0000ms, 0179ms total)
T12C5C 000:828 JLINK_WriteReg(CFBP, 0x00000000)  returns 0x00 (0000ms, 0179ms total)
T12C5C 000:828 JLINK_SetBPEx(Addr = 0x1FFFF000, Type = 0xFFFFFFF2)  returns 0x00000010 (0000ms, 0179ms total)
T12C5C 000:828 JLINK_Go() (0002ms, 0181ms total)
T12C5C 000:830 JLINK_IsHalted()  returns TRUE (0003ms, 0184ms total)
T12C5C 000:833 JLINK_ReadReg(R15)  returns 0x1FFFF000 (0000ms, 0181ms total)
T12C5C 000:833 JLINK_ClrBPEx(BPHandle = 0x00000010)  returns 0x00 (0000ms, 0181ms total)
T12C5C 000:833 JLINK_ReadReg(R0)  returns 0x00000001 (0000ms, 0181ms total)
T12C5C 000:833 JLINK_WriteReg(R0, 0x00000E00)  returns 0x00 (0000ms, 0181ms total)
T12C5C 000:833 JLINK_WriteReg(R1, 0x00000200)  returns 0x00 (0000ms, 0181ms total)
T12C5C 000:833 JLINK_WriteReg(R2, 0x000000FF)  returns 0x00 (0000ms, 0181ms total)
T12C5C 000:833 JLINK_WriteReg(R3, 0x00000000)  returns 0x00 (0000ms, 0181ms total)
T12C5C 000:833 JLINK_WriteReg(R4, 0x00000000)  returns 0x00 (0000ms, 0181ms total)
T12C5C 000:833 JLINK_WriteReg(R5, 0x00000000)  returns 0x00 (0000ms, 0181ms total)
T12C5C 000:833 JLINK_WriteReg(R6, 0x00000000)  returns 0x00 (0000ms, 0181ms total)
T12C5C 000:833 JLINK_WriteReg(R7, 0x00000000)  returns 0x00 (0000ms, 0181ms total)
T12C5C 000:833 JLINK_WriteReg(R8, 0x00000000)  returns 0x00 (0001ms, 0182ms total)
T12C5C 000:834 JLINK_WriteReg(R9, 0x1FFFF1A8)  returns 0x00 (0000ms, 0182ms total)
T12C5C 000:834 JLINK_WriteReg(R10, 0x00000000)  returns 0x00 (0000ms, 0182ms total)
T12C5C 000:834 JLINK_WriteReg(R11, 0x00000000)  returns 0x00 (0000ms, 0182ms total)
T12C5C 000:834 JLINK_WriteReg(R12, 0x00000000)  returns 0x00 (0000ms, 0182ms total)
T12C5C 000:834 JLINK_WriteReg(R13, 0x20000000)  returns 0x00 (0000ms, 0182ms total)
T12C5C 000:834 JLINK_WriteReg(R14, 0x1FFFF001)  returns 0x00 (0000ms, 0182ms total)
T12C5C 000:834 JLINK_WriteReg(R15, 0x1FFFF0DA)  returns 0x00 (0000ms, 0182ms total)
T12C5C 000:834 JLINK_WriteReg(XPSR, 0x01000000)  returns 0x00 (0000ms, 0182ms total)
T12C5C 000:834 JLINK_WriteReg(MSP, 0x20000000)  returns 0x00 (0000ms, 0182ms total)
T12C5C 000:834 JLINK_WriteReg(PSP, 0x20000000)  returns 0x00 (0000ms, 0182ms total)
T12C5C 000:834 JLINK_WriteReg(CFBP, 0x00000000)  returns 0x00 (0000ms, 0182ms total)
T12C5C 000:834 JLINK_SetBPEx(Addr = 0x1FFFF000, Type = 0xFFFFFFF2)  returns 0x00000011 (0000ms, 0182ms total)
T12C5C 000:834 JLINK_Go() (0002ms, 0184ms total)
T12C5C 000:836 JLINK_IsHalted()  returns FALSE (0000ms, 0184ms total)
T12C5C 000:839 JLINK_IsHalted()  returns FALSE (0001ms, 0185ms total)
T12C5C 000:841 JLINK_IsHalted()  returns FALSE (0001ms, 0185ms total)
T12C5C 000:843 JLINK_IsHalted()  returns FALSE (0001ms, 0185ms total)
T12C5C 000:845 JLINK_IsHalted()  returns FALSE (0001ms, 0185ms total)
T12C5C 000:847 JLINK_IsHalted()  returns FALSE (0001ms, 0185ms total)
T12C5C 000:849 JLINK_IsHalted()  returns FALSE (0001ms, 0185ms total)
T12C5C 000:853 JLINK_IsHalted()  returns FALSE (0000ms, 0184ms total)
T12C5C 000:855 JLINK_IsHalted()  returns FALSE (0000ms, 0184ms total)
T12C5C 000:857 JLINK_IsHalted()  returns FALSE (0001ms, 0185ms total)
T12C5C 000:859 JLINK_IsHalted()  returns FALSE (0001ms, 0185ms total)
T12C5C 000:861 JLINK_IsHalted()  returns FALSE (0001ms, 0185ms total)
T12C5C 000:863 JLINK_IsHalted()  returns FALSE (0001ms, 0185ms total)
T12C5C 000:866 JLINK_IsHalted()  returns TRUE (0003ms, 0187ms total)
T12C5C 000:869 JLINK_ReadReg(R15)  returns 0x1FFFF000 (0000ms, 0184ms total)
T12C5C 000:869 JLINK_ClrBPEx(BPHandle = 0x00000011)  returns 0x00 (0000ms, 0184ms total)
T12C5C 000:869 JLINK_ReadReg(R0)  returns 0x00000000 (0000ms, 0184ms total)
T12C5C 000:870 JLINK_WriteReg(R0, 0x00001000)  returns 0x00 (0000ms, 0184ms total)
T12C5C 000:870 JLINK_WriteReg(R1, 0x00000200)  returns 0x00 (0000ms, 0184ms total)
T12C5C 000:870 JLINK_WriteReg(R2, 0x000000FF)  returns 0x00 (0000ms, 0184ms total)
T12C5C 000:870 JLINK_WriteReg(R3, 0x00000000)  returns 0x00 (0000ms, 0184ms total)
T12C5C 000:870 JLINK_WriteReg(R4, 0x00000000)  returns 0x00 (0000ms, 0184ms total)
T12C5C 000:870 JLINK_WriteReg(R5, 0x00000000)  returns 0x00 (0000ms, 0184ms total)
T12C5C 000:870 JLINK_WriteReg(R6, 0x00000000)  returns 0x00 (0000ms, 0184ms total)
T12C5C 000:870 JLINK_WriteReg(R7, 0x00000000)  returns 0x00 (0001ms, 0185ms total)
T12C5C 000:871 JLINK_WriteReg(R8, 0x00000000)  returns 0x00 (0000ms, 0185ms total)
T12C5C 000:871 JLINK_WriteReg(R9, 0x1FFFF1A8)  returns 0x00 (0000ms, 0185ms total)
T12C5C 000:871 JLINK_WriteReg(R10, 0x00000000)  returns 0x00 (0000ms, 0185ms total)
T12C5C 000:871 JLINK_WriteReg(R11, 0x00000000)  returns 0x00 (0000ms, 0185ms total)
T12C5C 000:871 JLINK_WriteReg(R12, 0x00000000)  returns 0x00 (0000ms, 0185ms total)
T12C5C 000:871 JLINK_WriteReg(R13, 0x20000000)  returns 0x00 (0000ms, 0185ms total)
T12C5C 000:871 JLINK_WriteReg(R14, 0x1FFFF001)  returns 0x00 (0000ms, 0185ms total)
T12C5C 000:871 JLINK_WriteReg(R15, 0x1FFFF020)  returns 0x00 (0000ms, 0185ms total)
T12C5C 000:871 JLINK_WriteReg(XPSR, 0x01000000)  returns 0x00 (0000ms, 0185ms total)
T12C5C 000:871 JLINK_WriteReg(MSP, 0x20000000)  returns 0x00 (0000ms, 0185ms total)
T12C5C 000:871 JLINK_WriteReg(PSP, 0x20000000)  returns 0x00 (0000ms, 0185ms total)
T12C5C 000:871 JLINK_WriteReg(CFBP, 0x00000000)  returns 0x00 (0000ms, 0185ms total)
T12C5C 000:872 JLINK_SetBPEx(Addr = 0x1FFFF000, Type = 0xFFFFFFF2)  returns 0x00000012 (0000ms, 0186ms total)
T12C5C 000:872 JLINK_Go() (0001ms, 0187ms total)
T12C5C 000:873 JLINK_IsHalted()  returns TRUE (0004ms, 0191ms total)
T12C5C 000:877 JLINK_ReadReg(R15)  returns 0x1FFFF000 (0000ms, 0187ms total)
T12C5C 000:877 JLINK_ClrBPEx(BPHandle = 0x00000012)  returns 0x00 (0000ms, 0187ms total)
T12C5C 000:877 JLINK_ReadReg(R0)  returns 0x00000001 (0000ms, 0187ms total)
T12C5C 000:877 JLINK_WriteReg(R0, 0x00001000)  returns 0x00 (0000ms, 0187ms total)
T12C5C 000:877 JLINK_WriteReg(R1, 0x00000200)  returns 0x00 (0000ms, 0187ms total)
T12C5C 000:877 JLINK_WriteReg(R2, 0x000000FF)  returns 0x00 (0000ms, 0187ms total)
T12C5C 000:877 JLINK_WriteReg(R3, 0x00000000)  returns 0x00 (0000ms, 0187ms total)
T12C5C 000:877 JLINK_WriteReg(R4, 0x00000000)  returns 0x00 (0000ms, 0187ms total)
T12C5C 000:877 JLINK_WriteReg(R5, 0x00000000)  returns 0x00 (0000ms, 0187ms total)
T12C5C 000:877 JLINK_WriteReg(R6, 0x00000000)  returns 0x00 (0000ms, 0187ms total)
T12C5C 000:877 JLINK_WriteReg(R7, 0x00000000)  returns 0x00 (0000ms, 0187ms total)
T12C5C 000:877 JLINK_WriteReg(R8, 0x00000000)  returns 0x00 (0000ms, 0187ms total)
T12C5C 000:877 JLINK_WriteReg(R9, 0x1FFFF1A8)  returns 0x00 (0000ms, 0187ms total)
T12C5C 000:877 JLINK_WriteReg(R10, 0x00000000)  returns 0x00 (0000ms, 0187ms total)
T12C5C 000:877 JLINK_WriteReg(R11, 0x00000000)  returns 0x00 (0000ms, 0187ms total)
T12C5C 000:877 JLINK_WriteReg(R12, 0x00000000)  returns 0x00 (0001ms, 0188ms total)
T12C5C 000:878 JLINK_WriteReg(R13, 0x20000000)  returns 0x00 (0000ms, 0188ms total)
